# //  Questa Sim-64
# //  Version 10.7c win64 Aug 18 2018
# //
# //  Copyright 1991-2018 Mentor Graphics Corporation
# //  All Rights Reserved.
# //
# //  QuestaSim and its associated documentation contain trade
# //  secrets and commercial or financial information that are the property of
# //  Mentor Graphics Corporation and are privileged, confidential,
# //  and exempt from disclosure under the Freedom of Information Act,
# //  5 U.S.C. Section 552. Furthermore, this information
# //  is prohibited from disclosure under the Trade Secrets Act,
# //  18 U.S.C. Section 1905.
# //
# vsim -i tb_top "+UVM_OBJECTION_TRACE" "+UVM_TESTNAME=apb_test" -do "add wave -position insertpoint sim:/tb_top/intf/*; coverage save -onexit <TESTSET_CODE_COVER>.ucdb;run -all;quit" -coverage -voptargs="+cover=bcfst" -l sim.log 
# Start time: 10:59:49 on Jul 21,2023
# ** Note: (vsim-3812) Design is being optimized...
# ** Warning: ..\tb\interface.sv(30): (vopt-2244) Variable 'cvg' is implicitly static. You must either explicitly declare it as static or automatic
# or remove the initialization in the declaration of variable.
# ** Warning: ..\tb\interface.sv(33): (vopt-2240) Treating stand-alone use of function 'get_inst_coverage' as an implicit VOID cast.
# ** Warning: ..\tb\interface.sv(30): (vopt-2244) Variable 'cvg' is implicitly static. You must either explicitly declare it as static or automatic
# or remove the initialization in the declaration of variable.
# Loading sv_std.std
# Loading mtiUvm.uvm_pkg
# Loading work.testbench_sv_unit(fast)
# Loading work.tb_top(fast)
# Loading work.apb_slave(fast)
# Loading work.apb_intf(fast)
# Loading mtiUvm.questa_uvm_pkg(fast)
# Loading work.apb_intf(fast)
# Loading C:/questasim64_10.7c/uvm-1.1d\win64\uvm_dpi.dll
# add wave -position insertpoint sim:/tb_top/intf/*
#  coverage save -onexit <TESTSET_CODE_COVER>.ucdb
# run -all
# ----------------------------------------------------------------
# UVM-1.1d
# (C) 2007-2013 Mentor Graphics Corporation
# (C) 2007-2013 Cadence Design Systems, Inc.
# (C) 2006-2013 Synopsys, Inc.
# (C) 2011-2013 Cypress Semiconductor Corp.
# ----------------------------------------------------------------
# 
#   ***********       IMPORTANT RELEASE NOTES         ************
# 
#   You are using a version of the UVM library that has been compiled
#   with `UVM_NO_DEPRECATED undefined.
#   See http://www.eda.org/svdb/view.php?id=3313 for more details.
# 
#   You are using a version of the UVM library that has been compiled
#   with `UVM_OBJECT_MUST_HAVE_CONSTRUCTOR undefined.
#   See http://www.eda.org/svdb/view.php?id=3770 for more details.
# 
#       (Specify +UVM_NO_RELNOTES to turn off this notice)
# 
# UVM_INFO verilog_src/questa_uvm_pkg-1.2/src/questa_uvm_pkg.sv(215) @ 0: reporter [Questa UVM] QUESTA_UVM-1.2.3
# UVM_INFO verilog_src/questa_uvm_pkg-1.2/src/questa_uvm_pkg.sv(216) @ 0: reporter [Questa UVM]  questa_uvm::init(+struct)
# Coverage = 0.000000
# UVM_INFO @ 0: reporter [RNTST] Running test apb_test...
# ----------------------------------------------
# Name                 Type          Size  Value
# ----------------------------------------------
# m_conf               apb_mas_conf  -     @479 
#   no_slave           integral      32    'h0  
#   no_master          integral      32    'h1  
#   insert_wait_cycle  integral      1     'h0  
#   num_wait_cycle     integral      32    'h0  
# ----------------------------------------------
# UVM_INFO @ 0: reporter [UVMTOP] UVM testbench topology:
# -------------------------------------------------------------------------
# Name                         Type                             Size  Value
# -------------------------------------------------------------------------
# uvm_test_top                 apb_test                         -     @472 
#   env                        apb_env                          -     @480 
#     agnt1                    apb_mas_agnt                     -     @505 
#       drv                    apb_mas_driver                   -     @622 
#         drv2scb              uvm_analysis_port                -     @645 
#         rsp_port             uvm_analysis_port                -     @637 
#         seq_item_port        uvm_seq_item_pull_port           -     @629 
#       mas_sequencer          apb_mas_sequencer                -     @513 
#         rsp_export           uvm_analysis_export              -     @520 
#         seq_item_export      uvm_seq_item_pull_imp            -     @614 
#         arbitration_queue    array                            0     -    
#         lock_queue           array                            0     -    
#         num_last_reqs        integral                         32    'd1  
#         num_last_rsps        integral                         32    'd1  
#       mon                    apb_mas_monitor                  -     @653 
#         item_collected_port  uvm_analysis_port                -     @672 
#     scb                      apb_scb                          -     @496 
#       drv2scb_export         uvm_analysis_imp_drv2scb         -     @690 
#       item_collected_export  uvm_analysis_imp_item_collected  -     @682 
# -------------------------------------------------------------------------
# 
# UVM_INFO @ 0: reporter [UVMTOP] UVM testbench topology:
# -------------------------------------------------------------------------
# Name                         Type                             Size  Value
# -------------------------------------------------------------------------
# uvm_test_top                 apb_test                         -     @472 
#   env                        apb_env                          -     @480 
#     agnt1                    apb_mas_agnt                     -     @505 
#       drv                    apb_mas_driver                   -     @622 
#         drv2scb              uvm_analysis_port                -     @645 
#         rsp_port             uvm_analysis_port                -     @637 
#         seq_item_port        uvm_seq_item_pull_port           -     @629 
#       mas_sequencer          apb_mas_sequencer                -     @513 
#         rsp_export           uvm_analysis_export              -     @520 
#         seq_item_export      uvm_seq_item_pull_imp            -     @614 
#         arbitration_queue    array                            0     -    
#         lock_queue           array                            0     -    
#         num_last_reqs        integral                         32    'd1  
#         num_last_rsps        integral                         32    'd1  
#       mon                    apb_mas_monitor                  -     @653 
#         item_collected_port  uvm_analysis_port                -     @672 
#     scb                      apb_scb                          -     @496 
#       drv2scb_export         uvm_analysis_imp_drv2scb         -     @690 
#       item_collected_export  uvm_analysis_imp_item_collected  -     @682 
# -------------------------------------------------------------------------
# 
# UVM_INFO @ 0: reporter [UVMTOP] UVM testbench topology:
# -------------------------------------------------------------------------
# Name                         Type                             Size  Value
# -------------------------------------------------------------------------
# uvm_test_top                 apb_test                         -     @472 
#   env                        apb_env                          -     @480 
#     agnt1                    apb_mas_agnt                     -     @505 
#       drv                    apb_mas_driver                   -     @622 
#         drv2scb              uvm_analysis_port                -     @645 
#         rsp_port             uvm_analysis_port                -     @637 
#         seq_item_port        uvm_seq_item_pull_port           -     @629 
#       mas_sequencer          apb_mas_sequencer                -     @513 
#         rsp_export           uvm_analysis_export              -     @520 
#         seq_item_export      uvm_seq_item_pull_imp            -     @614 
#         arbitration_queue    array                            0     -    
#         lock_queue           array                            0     -    
#         num_last_reqs        integral                         32    'd1  
#         num_last_rsps        integral                         32    'd1  
#       mon                    apb_mas_monitor                  -     @653 
#         item_collected_port  uvm_analysis_port                -     @672 
#     scb                      apb_scb                          -     @496 
#       drv2scb_export         uvm_analysis_imp_drv2scb         -     @690 
#       item_collected_export  uvm_analysis_imp_item_collected  -     @682 
# -------------------------------------------------------------------------
# 
# UVM_INFO @ 0: run [OBJTN_TRC] Object uvm_test_top raised 1 objection(s): count=1  total=1
# UVM_INFO @ 0: run [OBJTN_TRC] Object uvm_top added 1 objection(s) to its total (raised from source object uvm_test_top): count=0  total=1
# UVM_INFO ..\tb\m_monitor.sv(67) @ 15: uvm_test_top.env.agnt1.mon [uvm_test_top.env.agnt1.mon]  	 paddr=17, 	 pwdata=11,	 prdata=0
# UVM_INFO ..\tb\m_driver.sv(124) @ 20: uvm_test_top.env.agnt1.drv [apb_mas_driver] 	 PADDR=17,	 PwDATA=11
# UVM_INFO ..\tb\scoreboard.sv(65) @ 20: uvm_test_top.env.scb [uvm_test_top.env.scb]  	 paddr=17, 	 pwdata=11,	 prdata=0
# UVM_INFO ..\tb\m_monitor.sv(67) @ 25: uvm_test_top.env.agnt1.mon [uvm_test_top.env.agnt1.mon]  	 paddr=17, 	 pwdata=11,	 prdata=0
# UVM_INFO ..\tb\m_monitor.sv(67) @ 35: uvm_test_top.env.agnt1.mon [uvm_test_top.env.agnt1.mon]  	 paddr=1b, 	 pwdata=22,	 prdata=0
# UVM_INFO ..\tb\m_driver.sv(124) @ 40: uvm_test_top.env.agnt1.drv [apb_mas_driver] 	 PADDR=1b,	 PwDATA=22
# UVM_INFO ..\tb\scoreboard.sv(65) @ 40: uvm_test_top.env.scb [uvm_test_top.env.scb]  	 paddr=1b, 	 pwdata=22,	 prdata=0
# UVM_INFO ..\tb\m_monitor.sv(67) @ 45: uvm_test_top.env.agnt1.mon [uvm_test_top.env.agnt1.mon]  	 paddr=1b, 	 pwdata=22,	 prdata=0
# UVM_INFO ..\tb\m_monitor.sv(67) @ 55: uvm_test_top.env.agnt1.mon [uvm_test_top.env.agnt1.mon]  	 paddr=19, 	 pwdata=33,	 prdata=0
# UVM_INFO ..\tb\m_driver.sv(124) @ 60: uvm_test_top.env.agnt1.drv [apb_mas_driver] 	 PADDR=19,	 PwDATA=33
# UVM_INFO ..\tb\scoreboard.sv(65) @ 60: uvm_test_top.env.scb [uvm_test_top.env.scb]  	 paddr=19, 	 pwdata=33,	 prdata=0
# UVM_INFO ..\tb\m_monitor.sv(67) @ 65: uvm_test_top.env.agnt1.mon [uvm_test_top.env.agnt1.mon]  	 paddr=19, 	 pwdata=33,	 prdata=0
# UVM_INFO ..\tb\m_monitor.sv(67) @ 75: uvm_test_top.env.agnt1.mon [uvm_test_top.env.agnt1.mon]  	 paddr=1c, 	 pwdata=44,	 prdata=0
# UVM_INFO ..\tb\m_driver.sv(124) @ 80: uvm_test_top.env.agnt1.drv [apb_mas_driver] 	 PADDR=1c,	 PwDATA=44
# UVM_INFO ..\tb\scoreboard.sv(65) @ 80: uvm_test_top.env.scb [uvm_test_top.env.scb]  	 paddr=1c, 	 pwdata=44,	 prdata=0
# UVM_INFO ..\tb\m_monitor.sv(67) @ 85: uvm_test_top.env.agnt1.mon [uvm_test_top.env.agnt1.mon]  	 paddr=1c, 	 pwdata=44,	 prdata=0
# UVM_INFO ..\tb\scoreboard.sv(88) @ 95: uvm_test_top.env.scb [uvm_test_top.env.scb] read_operation_not_matched_with_write_operation
# UVM_INFO ..\tb\scoreboard.sv(97) @ 95: uvm_test_top.env.scb [uvm_test_top.env.scb]  	 paddr=17, 	 pwdata=44,	 prdata=0
# UVM_INFO ..\tb\m_monitor.sv(81) @ 95: uvm_test_top.env.agnt1.mon [uvm_test_top.env.agnt1.mon]  	 paddr=17, 	 pwdata=44,	 prdata=0
# UVM_INFO ..\tb\scoreboard.sv(88) @ 105: uvm_test_top.env.scb [uvm_test_top.env.scb] read_operation_not_matched_with_write_operation
# UVM_INFO ..\tb\scoreboard.sv(97) @ 105: uvm_test_top.env.scb [uvm_test_top.env.scb]  	 paddr=17, 	 pwdata=44,	 prdata=0
# UVM_INFO ..\tb\m_monitor.sv(81) @ 105: uvm_test_top.env.agnt1.mon [uvm_test_top.env.agnt1.mon]  	 paddr=17, 	 pwdata=44,	 prdata=0
# UVM_INFO ..\tb\m_driver.sv(162) @ 105: uvm_test_top.env.agnt1.drv [apb_mas_driver] 	 PADDR=17,	 PRDATA=0
# UVM_INFO ..\tb\scoreboard.sv(82) @ 115: uvm_test_top.env.scb [uvm_test_top.env.scb]  	 paddr=17, 	 pwdata=44,	 prdata=11
# UVM_INFO ..\tb\scoreboard.sv(83) @ 115: uvm_test_top.env.scb [uvm_test_top.env.scb] read_operation_matched_with_write_operation
# UVM_INFO ..\tb\scoreboard.sv(97) @ 115: uvm_test_top.env.scb [uvm_test_top.env.scb]  	 paddr=17, 	 pwdata=44,	 prdata=11
# UVM_INFO ..\tb\m_monitor.sv(81) @ 115: uvm_test_top.env.agnt1.mon [uvm_test_top.env.agnt1.mon]  	 paddr=17, 	 pwdata=44,	 prdata=11
# UVM_INFO ..\tb\scoreboard.sv(88) @ 125: uvm_test_top.env.scb [uvm_test_top.env.scb] read_operation_not_matched_with_write_operation
# UVM_INFO ..\tb\scoreboard.sv(97) @ 125: uvm_test_top.env.scb [uvm_test_top.env.scb]  	 paddr=1b, 	 pwdata=44,	 prdata=0
# UVM_INFO ..\tb\m_monitor.sv(81) @ 125: uvm_test_top.env.agnt1.mon [uvm_test_top.env.agnt1.mon]  	 paddr=1b, 	 pwdata=44,	 prdata=0
# UVM_INFO ..\tb\scoreboard.sv(88) @ 135: uvm_test_top.env.scb [uvm_test_top.env.scb] read_operation_not_matched_with_write_operation
# UVM_INFO ..\tb\scoreboard.sv(97) @ 135: uvm_test_top.env.scb [uvm_test_top.env.scb]  	 paddr=1b, 	 pwdata=44,	 prdata=0
# UVM_INFO ..\tb\m_monitor.sv(81) @ 135: uvm_test_top.env.agnt1.mon [uvm_test_top.env.agnt1.mon]  	 paddr=1b, 	 pwdata=44,	 prdata=0
# UVM_INFO ..\tb\m_driver.sv(162) @ 135: uvm_test_top.env.agnt1.drv [apb_mas_driver] 	 PADDR=1b,	 PRDATA=0
# UVM_INFO ..\tb\scoreboard.sv(82) @ 145: uvm_test_top.env.scb [uvm_test_top.env.scb]  	 paddr=1b, 	 pwdata=44,	 prdata=22
# UVM_INFO ..\tb\scoreboard.sv(83) @ 145: uvm_test_top.env.scb [uvm_test_top.env.scb] read_operation_matched_with_write_operation
# UVM_INFO ..\tb\scoreboard.sv(97) @ 145: uvm_test_top.env.scb [uvm_test_top.env.scb]  	 paddr=1b, 	 pwdata=44,	 prdata=22
# UVM_INFO ..\tb\m_monitor.sv(81) @ 145: uvm_test_top.env.agnt1.mon [uvm_test_top.env.agnt1.mon]  	 paddr=1b, 	 pwdata=44,	 prdata=22
# UVM_INFO ..\tb\scoreboard.sv(88) @ 155: uvm_test_top.env.scb [uvm_test_top.env.scb] read_operation_not_matched_with_write_operation
# UVM_INFO ..\tb\scoreboard.sv(97) @ 155: uvm_test_top.env.scb [uvm_test_top.env.scb]  	 paddr=19, 	 pwdata=44,	 prdata=0
# UVM_INFO ..\tb\m_monitor.sv(81) @ 155: uvm_test_top.env.agnt1.mon [uvm_test_top.env.agnt1.mon]  	 paddr=19, 	 pwdata=44,	 prdata=0
# UVM_INFO ..\tb\scoreboard.sv(88) @ 165: uvm_test_top.env.scb [uvm_test_top.env.scb] read_operation_not_matched_with_write_operation
# UVM_INFO ..\tb\scoreboard.sv(97) @ 165: uvm_test_top.env.scb [uvm_test_top.env.scb]  	 paddr=19, 	 pwdata=44,	 prdata=0
# UVM_INFO ..\tb\m_monitor.sv(81) @ 165: uvm_test_top.env.agnt1.mon [uvm_test_top.env.agnt1.mon]  	 paddr=19, 	 pwdata=44,	 prdata=0
# UVM_INFO ..\tb\m_driver.sv(162) @ 165: uvm_test_top.env.agnt1.drv [apb_mas_driver] 	 PADDR=19,	 PRDATA=0
# UVM_INFO ..\tb\scoreboard.sv(82) @ 175: uvm_test_top.env.scb [uvm_test_top.env.scb]  	 paddr=19, 	 pwdata=44,	 prdata=33
# UVM_INFO ..\tb\scoreboard.sv(83) @ 175: uvm_test_top.env.scb [uvm_test_top.env.scb] read_operation_matched_with_write_operation
# UVM_INFO ..\tb\scoreboard.sv(97) @ 175: uvm_test_top.env.scb [uvm_test_top.env.scb]  	 paddr=19, 	 pwdata=44,	 prdata=33
# UVM_INFO ..\tb\m_monitor.sv(81) @ 175: uvm_test_top.env.agnt1.mon [uvm_test_top.env.agnt1.mon]  	 paddr=19, 	 pwdata=44,	 prdata=33
# UVM_INFO ..\tb\scoreboard.sv(88) @ 185: uvm_test_top.env.scb [uvm_test_top.env.scb] read_operation_not_matched_with_write_operation
# UVM_INFO ..\tb\scoreboard.sv(97) @ 185: uvm_test_top.env.scb [uvm_test_top.env.scb]  	 paddr=1c, 	 pwdata=44,	 prdata=0
# UVM_INFO ..\tb\m_monitor.sv(81) @ 185: uvm_test_top.env.agnt1.mon [uvm_test_top.env.agnt1.mon]  	 paddr=1c, 	 pwdata=44,	 prdata=0
# UVM_INFO ..\tb\scoreboard.sv(88) @ 195: uvm_test_top.env.scb [uvm_test_top.env.scb] read_operation_not_matched_with_write_operation
# UVM_INFO ..\tb\scoreboard.sv(97) @ 195: uvm_test_top.env.scb [uvm_test_top.env.scb]  	 paddr=1c, 	 pwdata=44,	 prdata=0
# UVM_INFO ..\tb\m_monitor.sv(81) @ 195: uvm_test_top.env.agnt1.mon [uvm_test_top.env.agnt1.mon]  	 paddr=1c, 	 pwdata=44,	 prdata=0
# UVM_INFO ..\tb\m_driver.sv(162) @ 195: uvm_test_top.env.agnt1.drv [apb_mas_driver] 	 PADDR=1c,	 PRDATA=0
# UVM_INFO ..\tb\scoreboard.sv(82) @ 205: uvm_test_top.env.scb [uvm_test_top.env.scb]  	 paddr=1c, 	 pwdata=44,	 prdata=44
# UVM_INFO ..\tb\scoreboard.sv(83) @ 205: uvm_test_top.env.scb [uvm_test_top.env.scb] read_operation_matched_with_write_operation
# UVM_INFO ..\tb\scoreboard.sv(97) @ 205: uvm_test_top.env.scb [uvm_test_top.env.scb]  	 paddr=1c, 	 pwdata=44,	 prdata=44
# UVM_INFO ..\tb\m_monitor.sv(81) @ 205: uvm_test_top.env.agnt1.mon [uvm_test_top.env.agnt1.mon]  	 paddr=1c, 	 pwdata=44,	 prdata=44
# UVM_INFO ..\tb\scoreboard.sv(88) @ 215: uvm_test_top.env.scb [uvm_test_top.env.scb] read_operation_not_matched_with_write_operation
# UVM_INFO ..\tb\scoreboard.sv(97) @ 215: uvm_test_top.env.scb [uvm_test_top.env.scb]  	 paddr=1c, 	 pwdata=44,	 prdata=0
# UVM_INFO ..\tb\m_monitor.sv(81) @ 215: uvm_test_top.env.agnt1.mon [uvm_test_top.env.agnt1.mon]  	 paddr=1c, 	 pwdata=44,	 prdata=0
# UVM_INFO ..\tb\scoreboard.sv(88) @ 225: uvm_test_top.env.scb [uvm_test_top.env.scb] read_operation_not_matched_with_write_operation
# UVM_INFO ..\tb\scoreboard.sv(97) @ 225: uvm_test_top.env.scb [uvm_test_top.env.scb]  	 paddr=1c, 	 pwdata=44,	 prdata=0
# UVM_INFO ..\tb\m_monitor.sv(81) @ 225: uvm_test_top.env.agnt1.mon [uvm_test_top.env.agnt1.mon]  	 paddr=1c, 	 pwdata=44,	 prdata=0
# UVM_INFO ..\tb\scoreboard.sv(88) @ 235: uvm_test_top.env.scb [uvm_test_top.env.scb] read_operation_not_matched_with_write_operation
# UVM_INFO ..\tb\scoreboard.sv(97) @ 235: uvm_test_top.env.scb [uvm_test_top.env.scb]  	 paddr=1c, 	 pwdata=44,	 prdata=0
# UVM_INFO ..\tb\m_monitor.sv(81) @ 235: uvm_test_top.env.agnt1.mon [uvm_test_top.env.agnt1.mon]  	 paddr=1c, 	 pwdata=44,	 prdata=0
# UVM_INFO @ 245: run [OBJTN_TRC] Object uvm_test_top dropped 1 objection(s): count=0  total=0
# UVM_INFO @ 245: run [OBJTN_TRC] Object uvm_test_top all_dropped 1 objection(s): count=0  total=0
# UVM_INFO @ 245: run [OBJTN_TRC] Object uvm_top subtracted 1 objection(s) from its total (dropped from source object uvm_test_top): count=0  total=0
# UVM_INFO ..\tb\scoreboard.sv(88) @ 245: uvm_test_top.env.scb [uvm_test_top.env.scb] read_operation_not_matched_with_write_operation
# UVM_INFO ..\tb\scoreboard.sv(97) @ 245: uvm_test_top.env.scb [uvm_test_top.env.scb]  	 paddr=1c, 	 pwdata=44,	 prdata=0
# UVM_INFO ..\tb\m_monitor.sv(81) @ 245: uvm_test_top.env.agnt1.mon [uvm_test_top.env.agnt1.mon]  	 paddr=1c, 	 pwdata=44,	 prdata=0
# UVM_INFO @ 245: run [OBJTN_TRC] Object uvm_top subtracted 1 objection(s) from its total (all_dropped from source object uvm_test_top): count=0  total=0
# UVM_INFO verilog_src/uvm-1.1d/src/base/uvm_objection.svh(1267) @ 245: reporter [TEST_DONE] 'run' phase is ready to proceed to the 'extract' phase
# 
# --- UVM Report Summary ---
# 
# ** Report counts by severity
# UVM_INFO :   85
# UVM_WARNING :    0
# UVM_ERROR :    0
# UVM_FATAL :    0
# ** Report counts by id
# [OBJTN_TRC]     6
# [Questa UVM]     2
# [RNTST]     1
# [TEST_DONE]     1
# [UVMTOP]     3
# [apb_mas_driver]     8
# [uvm_test_top.env.agnt1.mon]    24
# [uvm_test_top.env.scb]    40
# ** Note: $finish    : C:/questasim64_10.7c/win64/../verilog_src/uvm-1.1d/src/base/uvm_root.svh(430)
#    Time: 245 ns  Iteration: 54  Instance: /tb_top
# 1
# Break in Task uvm_pkg/uvm_root::run_test at C:/questasim64_10.7c/win64/../verilog_src/uvm-1.1d/src/base/uvm_root.svh line 430
# quit
coverage report -html -htmldir covhtmlreport -source -details -assert -directive -cvg -code bcefst -threshL 50 -threshH 90
# Report created in covhtmlreport/index.html
coverage exclude -src ../tb/m_driver.sv -scope /tb_top/#INITIAL#69 -line 26
# ** Warning: (vsim-4053) Scope '/tb_top/#INITIAL#69' was not found or has null coverage data.
# ** Warning: (vsim-4036) The 'coverage exclude' command had no effect on some/all objects because
# no matching coverage data was found.
# 
coverage exclude -src ../tb/m_driver.sv -scope /tb_top/#INITIAL#69 -line 26
# ** Warning: (vsim-4053) Scope '/tb_top/#INITIAL#69' was not found or has null coverage data.
# ** Warning: (vsim-4036) The 'coverage exclude' command had no effect on some/all objects because
# no matching coverage data was found.
# 
coverage exclude -src ../tb/m_driver.sv -line 26
coverage exclude -src C:/questasim64_10.7c/win64/../verilog_src/uvm-1.1d/src/reg/uvm_reg_map.svh -line 1735
# ** Warning: (vsim-4053) File 'C:/questasim64_10.7c/win64/../verilog_src/uvm-1.1d/src/reg/uvm_reg_map.svh' was not found or has null coverage data.
# ** Warning: (vsim-4036) The 'coverage exclude' command had no effect on some/all objects because
# no matching coverage data was found.
# 
coverage exclude -src C:/questasim64_10.7c/win64/../verilog_src/uvm-1.1d/src/reg/uvm_reg_map.svh -line 1735
# ** Warning: (vsim-4053) File 'C:/questasim64_10.7c/win64/../verilog_src/uvm-1.1d/src/reg/uvm_reg_map.svh' was not found or has null coverage data.
# ** Warning: (vsim-4036) The 'coverage exclude' command had no effect on some/all objects because
# no matching coverage data was found.
# 
coverage exclude -src C:/questasim64_10.7c/win64/../verilog_src/uvm-1.1d/src/reg/uvm_reg_map.svh -line 1735
# ** Warning: (vsim-4053) File 'C:/questasim64_10.7c/win64/../verilog_src/uvm-1.1d/src/reg/uvm_reg_map.svh' was not found or has null coverage data.
# ** Warning: (vsim-4036) The 'coverage exclude' command had no effect on some/all objects because
# no matching coverage data was found.
# 
